# HZ S RI R 50
350000000 0.229054416 -0.68056608 7.6117e-05 0.000566311 0 0 0 0
351500000 0.179024288 -0.695494656 -0.000317996 0.000444649 0 0 0 0
353000000 0.15304832 -0.719165248 -0.000106517 0.000554425 0 0 0 0
354500000 0.169387616 -0.701931968 0.000115077 0.000405612 0 0 0 0
356000000 0.14967368 -0.700610432 -0.000136756 0.000538384 0 0 0 0
357500000 0.13767504 -0.673174912 0.000110706 0.000550398 0 0 0 0
359000000 0.124236168 -0.68495392 1.6797e-05 0.000358491 0 0 0 0
360500000 0.116749824 -0.660065984 -0.000203931 0.000693164 0 0 0 0
362000000 0.10087228 -0.659980864 0.000322679 0.000475175 0 0 0 0
363500000 0.115804616 -0.66875648 7.099e-05 0.000516504 0 0 0 0
365000000 0.101967392 -0.634500096 4.8371e-05 0.000647763 0 0 0 0
366500000 0.096450344 -0.646671232 -6.6715e-05 0.000759115 0 0 0 0
368000000 0.068471608 -0.62436992 0.000171314 0.000434269 0 0 0 0
369500000 0.06080544 -0.6239136 -0.000127574 0.000561142 0 0 0 0
371000000 0.0516333 -0.609410496 -6.3355e-05 0.000597102 0 0 0 0
372500000 0.028168962 -0.605358464 -0.000123804 0.000345509 0 0 0 0
374000000 0.017485932 -0.581362112 1.7291e-05 0.000567488 0 0 0 0
375500000 -0.004876077 -0.587397184 -0.000244344 0.000453931 0 0 0 0
377000000 -0.000425838 -0.548658816 0.000104257 0.000258137 0 0 0 0
378500000 -0.028452188 -0.535622592 -0.000111069 8.9126e-05 0 0 0 0
380000000 -0.025846846 -0.530575872 0.000604556 0.000144886 0 0 0 0
381500000 -0.032709948 -0.506146496 0.000378153 0.000523051 0 0 0 0
383000000 -0.023824058 -0.487572064 0.000202317 0.000477168 0 0 0 0
384500000 -0.053847748 -0.45804112 -4.8804e-05 0.000339871 0 0 0 0
386000000 -0.041512316 -0.4578008 -6.097e-06 0.000623357 0 0 0 0
387500000 -0.048045192 -0.424650496 6.113e-06 -8.8596e-05 0 0 0 0
389000000 -0.056157588 -0.405838144 0.000345793 0.000332121 0 0 0 0
390500000 -0.050370168 -0.39986608 0.000294595 0.000423241 0 0 0 0
392000000 -0.034556208 -0.361193888 0.000505074 0.000411051 0 0 0 0
393500000 -0.059467988 -0.367184992 0.00025422 0.000292026 0 0 0 0
395000000 -0.037341604 -0.343432352 0.000401697 0.000532043 0 0 0 0
396500000 -0.03952646 -0.324108192 0.000409707 0.000277465 0 0 0 0
398000000 -0.023870766 -0.3083936 2.5867e-05 0.000611765 0 0 0 0
399500000 -0.037727068 -0.294075936 0.000199898 0.000289478 0 0 0 0
401000000 -0.011882992 -0.273365024 0.000219951 0.000834062 0 0 0 0
402500000 -0.01691565 -0.256170512 0.000483371 0.000343486 0 0 0 0
404000000 -7.8894e-05 -0.253881872 0.000260276 0.000388498 0 0 0 0
405500000 0.016222806 -0.237753616 0.000338889 0.000582115 0 0 0 0
407000000 0.003202122 -0.240201568 0.000190856 0.000894472 0 0 0 0
408500000 0.027147512 -0.233932048 3.1729e-05 0.000651331 0 0 0 0
410000000 0.027394164 -0.223344576 -5.6157e-05 0.000666477 0 0 0 0
411500000 0.022365314 -0.228275088 0.000307509 0.000597029 0 0 0 0
413000000 0.029288418 -0.213804304 0.000306959 0.000549551 0 0 0 0
414500000 0.009049166 -0.190922816 -1.6692e-05 0.000480396 0 0 0 0
416000000 0.007298682 -0.199738272 0.000131256 0.000260465 0 0 0 0
417500000 0.022678294 -0.174972976 0.000276095 0.000459768 0 0 0 0
419000000 0.018313498 -0.170603584 0.00018631 0.000249941 0 0 0 0
420500000 0.017485846 -0.146165424 0.000226154 0.000614391 0 0 0 0
422000000 0.038470768 -0.14239792 0.000196042 0.000491774 0 0 0 0
423500000 0.017869628 -0.118780696 0.00032312 0.000510481 0 0 0 0
425000000 0.023635846 -0.113454768 0.000398925 0.000372362 0 0 0 0
426500000 0.045552888 -0.101693248 0.000322755 0.000635514 0 0 0 0
428000000 0.053977956 -0.066122696 0.000652922 0.000670963 0 0 0 0
429500000 0.067491288 -0.072544736 0.000636587 0.000610052 0 0 0 0
431000000 0.08704732 -0.05121384 0.000345152 0.000310158 0 0 0 0
432500000 0.095588816 -0.062251504 0.000663595 0.000234117 0 0 0 0
434000000 0.099701752 -0.040591276 0.000591261 -0.000158341 0 0 0 0
435500000 0.123077128 -0.041722004 0.000526146 0.000200987 0 0 0 0
437000000 0.1197148 -0.025798294 0.000195387 0.000291257 0 0 0 0
438500000 0.153904944 -0.035954244 0.000572188 0.000488337 0 0 0 0
440000000 0.146041888 -0.031535708 0.000587539 0.000776419 0 0 0 0
441500000 0.179631536 -0.03052581 8.8018e-05 0.000411407 0 0 0 0
443000000 0.179935232 -0.026679052 0.000630658 0.000534911 0 0 0 0
444500000 0.181466032 -0.023449006 0.000499216 0.000786306 0 0 0 0
446000000 0.184804704 -0.044349608 0.000398507 0.000463648 0 0 0 0
447500000 0.207326144 -0.031661126 0.000621634 0.000484238 0 0 0 0
449000000 0.215487744 -0.0405929 0.000593325 0.00038087 0 0 0 0
450500000 0.188118912 -0.03018067 0.000357354 0.000390234 0 0 0 0
452000000 0.218506416 -0.034584816 0.000855557 0.000347891 0 0 0 0
453500000 0.203745088 -0.030348028 0.000434548 0.000206435 0 0 0 0
455000000 0.202138816 -0.041599764 0.000752013 0.000247741 0 0 0 0
456500000 0.198549056 -0.015735772 0.000741054 0.000222832 0 0 0 0
458000000 0.19062136 -0.035247696 0.000804317 0.000370075 0 0 0 0
459500000 0.21312232 -0.009155218 0.000820133 0.000546015 0 0 0 0
461000000 0.2157696 -0.012923304 0.000676157 0.000649838 0 0 0 0
462500000 0.2184924 0.001708407 0.000603046 0.000249515 0 0 0 0
464000000 0.225733088 0.018173906 0.000608936 0.000642168 0 0 0 0
465500000 0.228913392 0.016257372 0.000547599 0.000190513 0 0 0 0
467000000 0.22725672 0.008173548 0.000651302 0.000608932 0 0 0 0
468500000 0.2528156 0.00868027 0.000386932 0.00013831 0 0 0 0
470000000 0.24280672 0.018043182 0.000856849 0.000227956 0 0 0 0
471500000 0.256590848 0.036990792 0.000671118 0.000529266 0 0 0 0
473000000 0.24626584 0.032277182 0.000850692 0.000638261 0 0 0 0
474500000 0.27287056 0.042269824 0.000675209 0.000400296 0 0 0 0
476000000 0.25772232 0.049000144 0.000488019 0.000502073 0 0 0 0
477500000 0.297138144 0.060617344 0.0008612 0.00068646 0 0 0 0
479000000 0.279775008 0.071854104 0.000740998 4.0724e-05 0 0 0 0
480500000 0.301036288 0.04507038 0.000580915 -2.4594e-05 0 0 0 0
482000000 0.330265984 0.07941764 0.000876932 0.00020216 0 0 0 0
483500000 0.324771776 0.052651324 0.000475173 8.2939e-05 0 0 0 0
485000000 0.35052864 0.085185952 0.000790654 0.000562898 0 0 0 0
486500000 0.338835648 0.057459036 0.000735345 0.00036553 0 0 0 0
488000000 0.361939744 0.090637472 0.000439775 -3.11e-07 0 0 0 0
489500000 0.33506512 0.072231536 0.000219482 0.000399976 0 0 0 0
491000000 0.382266432 0.055332072 0.000700081 -0.000234812 0 0 0 0
492500000 0.378759328 0.09937476 0.000911504 -0.000276373 0 0 0 0
494000000 0.384464576 0.067696024 0.000925324 0.00027317 0 0 0 0
495500000 0.415248736 0.082900192 0.000947862 7.1028e-05 0 0 0 0
497000000 0.395335456 0.066812164 0.000862773 -6.6125e-05 0 0 0 0
498500000 0.391065408 0.064534472 0.000564526 0.000315575 0 0 0 0
500000000 0.43736672 0.103789496 0.000828938 9.2161e-05 0 0 0 0
