# HZ S RI R 50
350000000 0.229054416 -0.68056608
351500000 0.179024288 -0.695494656
353000000 0.15304832 -0.719165248
354500000 0.169387616 -0.701931968
356000000 0.14967368 -0.700610432
357500000 0.13767504 -0.673174912
359000000 0.124236168 -0.68495392
360500000 0.116749824 -0.660065984
362000000 0.10087228 -0.659980864
363500000 0.115804616 -0.66875648
365000000 0.101967392 -0.634500096
366500000 0.096450344 -0.646671232
368000000 0.068471608 -0.62436992
369500000 0.06080544 -0.6239136
371000000 0.0516333 -0.609410496
372500000 0.028168962 -0.605358464
374000000 0.017485932 -0.581362112
375500000 -0.004876077 -0.587397184
377000000 -0.000425838 -0.548658816
378500000 -0.028452188 -0.535622592
380000000 -0.025846846 -0.530575872
381500000 -0.032709948 -0.506146496
383000000 -0.023824058 -0.487572064
384500000 -0.053847748 -0.45804112
386000000 -0.041512316 -0.4578008
387500000 -0.048045192 -0.424650496
389000000 -0.056157588 -0.405838144
390500000 -0.050370168 -0.39986608
392000000 -0.034556208 -0.361193888
393500000 -0.059467988 -0.367184992
395000000 -0.037341604 -0.343432352
396500000 -0.03952646 -0.324108192
398000000 -0.023870766 -0.3083936
399500000 -0.037727068 -0.294075936
401000000 -0.011882992 -0.273365024
402500000 -0.01691565 -0.256170512
404000000 -7.8894e-05 -0.253881872
405500000 0.016222806 -0.237753616
407000000 0.003202122 -0.240201568
408500000 0.027147512 -0.233932048
410000000 0.027394164 -0.223344576
411500000 0.022365314 -0.228275088
413000000 0.029288418 -0.213804304
414500000 0.009049166 -0.190922816
416000000 0.007298682 -0.199738272
417500000 0.022678294 -0.174972976
419000000 0.018313498 -0.170603584
420500000 0.017485846 -0.146165424
422000000 0.038470768 -0.14239792
423500000 0.017869628 -0.118780696
425000000 0.023635846 -0.113454768
426500000 0.045552888 -0.101693248
428000000 0.053977956 -0.066122696
429500000 0.067491288 -0.072544736
431000000 0.08704732 -0.05121384
432500000 0.095588816 -0.062251504
434000000 0.099701752 -0.040591276
435500000 0.123077128 -0.041722004
437000000 0.1197148 -0.025798294
438500000 0.153904944 -0.035954244
440000000 0.146041888 -0.031535708
441500000 0.179631536 -0.03052581
443000000 0.179935232 -0.026679052
444500000 0.181466032 -0.023449006
446000000 0.184804704 -0.044349608
447500000 0.207326144 -0.031661126
449000000 0.215487744 -0.0405929
450500000 0.188118912 -0.03018067
452000000 0.218506416 -0.034584816
453500000 0.203745088 -0.030348028
455000000 0.202138816 -0.041599764
456500000 0.198549056 -0.015735772
458000000 0.19062136 -0.035247696
459500000 0.21312232 -0.009155218
461000000 0.2157696 -0.012923304
462500000 0.2184924 0.001708407
464000000 0.225733088 0.018173906
465500000 0.228913392 0.016257372
467000000 0.22725672 0.008173548
468500000 0.2528156 0.00868027
470000000 0.24280672 0.018043182
471500000 0.256590848 0.036990792
473000000 0.24626584 0.032277182
474500000 0.27287056 0.042269824
476000000 0.25772232 0.049000144
477500000 0.297138144 0.060617344
479000000 0.279775008 0.071854104
480500000 0.301036288 0.04507038
482000000 0.330265984 0.07941764
483500000 0.324771776 0.052651324
485000000 0.35052864 0.085185952
486500000 0.338835648 0.057459036
488000000 0.361939744 0.090637472
489500000 0.33506512 0.072231536
491000000 0.382266432 0.055332072
492500000 0.378759328 0.09937476
494000000 0.384464576 0.067696024
495500000 0.415248736 0.082900192
497000000 0.395335456 0.066812164
498500000 0.391065408 0.064534472
500000000 0.43736672 0.103789496
